
==============================================================
    Jasper Verification Results
==============================================================
    2022.12p002 64 bits for Linux64 3.10.0-1160.21.1.el7.x86_64
    Host Name: mo.ece.pdx.edu
    User Name: bhavanas
    Printed on: Monday, Jul13, 2026 09:05:34 PM PDT
    Working Directory: /u/bhavanas/AX_Crossbar_Verification/FPV/tcl


==============================================================
RESULTS
==============================================================

--------------------------------------------------------------------------------------------------------------------------------------------------------------------------------------------------
       Name                                                                                                                                      |    Result    |  Engine  |  Bound  |  Time    
--------------------------------------------------------------------------------------------------------------------------------------------------------------------------------------------------

---[ <embedded> ]---------------------------------------------------------------------------------------------------------------------------------------------------------------------------------
[1]   mst_switch_rd_fpv_top.u_dut.u_mst_switch_rd_props.GEN_ASM_ARVALID_STABLE[0].asm_arvalid_stable_i:precondition1                                  covered         N             1    0.043 s      
[2]   mst_switch_rd_fpv_top.u_dut.u_mst_switch_rd_props.GEN_ASM_ARVALID_STABLE[1].asm_arvalid_stable_i:precondition1                                  covered         Hp            1    0.077 s      
[3]   mst_switch_rd_fpv_top.u_dut.u_mst_switch_rd_props.GEN_ASM_ARVALID_STABLE[2].asm_arvalid_stable_i:precondition1                                  covered         Hp            1    0.077 s      
[4]   mst_switch_rd_fpv_top.u_dut.u_mst_switch_rd_props.GEN_ASM_ARVALID_STABLE[3].asm_arvalid_stable_i:precondition1                                  covered         Hp            1    0.077 s      
[5]   mst_switch_rd_fpv_top.u_dut.u_mst_switch_rd_props.GEN_ASM_ARCH_STABLE[0].asm_arch_stable_i:precondition1                                        covered         N             1    0.043 s      
[6]   mst_switch_rd_fpv_top.u_dut.u_mst_switch_rd_props.GEN_ASM_ARCH_STABLE[1].asm_arch_stable_i:precondition1                                        covered         Hp            1    0.077 s      
[7]   mst_switch_rd_fpv_top.u_dut.u_mst_switch_rd_props.GEN_ASM_ARCH_STABLE[2].asm_arch_stable_i:precondition1                                        covered         Hp            1    0.077 s      
[8]   mst_switch_rd_fpv_top.u_dut.u_mst_switch_rd_props.GEN_ASM_ARCH_STABLE[3].asm_arch_stable_i:precondition1                                        covered         Hp            1    0.077 s      
[9]   mst_switch_rd_fpv_top.u_dut.u_mst_switch_rd_props.asm_rvalid_stable:precondition1                                                               covered         Hp            1    0.087 s      
[10]  mst_switch_rd_fpv_top.u_dut.u_mst_switch_rd_props.asm_rch_stable:precondition1                                                                  covered         Hp            1    0.087 s      
[11]  mst_switch_rd_fpv_top.u_dut.u_mst_switch_rd_props.asm_rlast_stable:precondition1                                                                covered         Hp            1    0.087 s      
[12]  mst_switch_rd_fpv_top.u_dut.u_mst_switch_rd_props.asm_rch_id_in_range:precondition1                                                             covered         Hp            1    0.087 s      
[13]  mst_switch_rd_fpv_top.u_dut.u_mst_switch_rd_props.asm_reset_at_start:precondition1                                                              covered         N             1    0.043 s      
[14]  mst_switch_rd_fpv_top.u_dut.u_mst_switch_rd_props.asm_srst_not_with_areset:precondition1                                                        unreachable     PRE    Infinite    0.000 s      
[15]  mst_switch_rd_fpv_top.u_dut.u_mst_switch_rd_props.asm_srst_rare:precondition1                                                                   covered         Hp            1    0.077 s      
[16]  mst_switch_rd_fpv_top.u_dut.u_mst_switch_rd_props.ast_grant_onehot_or_zero                                                                      proven          Hp     Infinite    0.177 s      
[17]  mst_switch_rd_fpv_top.u_dut.u_mst_switch_rd_props.ast_arvalid_out_implies_grant                                                                 proven          Hp     Infinite    0.017 s      
[18]  mst_switch_rd_fpv_top.u_dut.u_mst_switch_rd_props.ast_arvalid_out_implies_grant:precondition1                                                   covered         Hp            1    0.098 s      
[19]  mst_switch_rd_fpv_top.u_dut.u_mst_switch_rd_props.GEN_AST_ARVALID_CORRECT[0].ast_arvalid_out_correct_master_i                                   proven          Hp     Infinite    0.177 s      
[20]  mst_switch_rd_fpv_top.u_dut.u_mst_switch_rd_props.GEN_AST_ARVALID_CORRECT[0].ast_arvalid_out_correct_master_i:precondition1                     covered         Hp            1    0.107 s      
[21]  mst_switch_rd_fpv_top.u_dut.u_mst_switch_rd_props.GEN_AST_ARVALID_CORRECT[1].ast_arvalid_out_correct_master_i                                   proven          Hp     Infinite    0.178 s      
[22]  mst_switch_rd_fpv_top.u_dut.u_mst_switch_rd_props.GEN_AST_ARVALID_CORRECT[1].ast_arvalid_out_correct_master_i:precondition1                     covered         Hp            1    0.116 s      
[23]  mst_switch_rd_fpv_top.u_dut.u_mst_switch_rd_props.GEN_AST_ARVALID_CORRECT[2].ast_arvalid_out_correct_master_i                                   proven          Hp     Infinite    0.178 s      
[24]  mst_switch_rd_fpv_top.u_dut.u_mst_switch_rd_props.GEN_AST_ARVALID_CORRECT[2].ast_arvalid_out_correct_master_i:precondition1                     covered         Hp            1    0.125 s      
[25]  mst_switch_rd_fpv_top.u_dut.u_mst_switch_rd_props.GEN_AST_ARVALID_CORRECT[3].ast_arvalid_out_correct_master_i                                   proven          Hp     Infinite    0.018 s      
[26]  mst_switch_rd_fpv_top.u_dut.u_mst_switch_rd_props.GEN_AST_ARVALID_CORRECT[3].ast_arvalid_out_correct_master_i:precondition1                     covered         Hp            1    0.098 s      
[27]  mst_switch_rd_fpv_top.u_dut.u_mst_switch_rd_props.GEN_AST_ARCH_CORRECT[0].ast_arch_out_correct_payload_i                                        proven          Hp     Infinite    0.178 s      
[28]  mst_switch_rd_fpv_top.u_dut.u_mst_switch_rd_props.GEN_AST_ARCH_CORRECT[0].ast_arch_out_correct_payload_i:precondition1                          covered         Hp            1    0.107 s      
[29]  mst_switch_rd_fpv_top.u_dut.u_mst_switch_rd_props.GEN_AST_ARCH_CORRECT[1].ast_arch_out_correct_payload_i                                        proven          Hp     Infinite    0.179 s      
[30]  mst_switch_rd_fpv_top.u_dut.u_mst_switch_rd_props.GEN_AST_ARCH_CORRECT[1].ast_arch_out_correct_payload_i:precondition1                          covered         Hp            1    0.116 s      
[31]  mst_switch_rd_fpv_top.u_dut.u_mst_switch_rd_props.GEN_AST_ARCH_CORRECT[2].ast_arch_out_correct_payload_i                                        proven          Hp     Infinite    0.179 s      
[32]  mst_switch_rd_fpv_top.u_dut.u_mst_switch_rd_props.GEN_AST_ARCH_CORRECT[2].ast_arch_out_correct_payload_i:precondition1                          covered         Hp            1    0.125 s      
[33]  mst_switch_rd_fpv_top.u_dut.u_mst_switch_rd_props.GEN_AST_ARCH_CORRECT[3].ast_arch_out_correct_payload_i                                        proven          Hp     Infinite    0.070 s      
[34]  mst_switch_rd_fpv_top.u_dut.u_mst_switch_rd_props.GEN_AST_ARCH_CORRECT[3].ast_arch_out_correct_payload_i:precondition1                          covered         Hp            1    0.098 s      
[35]  mst_switch_rd_fpv_top.u_dut.u_mst_switch_rd_props.GEN_AST_ARREADY_ONLY_GRANTED[0].ast_arready_only_to_granted_i                                 proven          PRE    Infinite    0.000 s      
[36]  mst_switch_rd_fpv_top.u_dut.u_mst_switch_rd_props.GEN_AST_ARREADY_ONLY_GRANTED[0].ast_arready_only_to_granted_i:precondition1                   covered         Hp            1    0.107 s      
[37]  mst_switch_rd_fpv_top.u_dut.u_mst_switch_rd_props.GEN_AST_ARREADY_ONLY_GRANTED[1].ast_arready_only_to_granted_i                                 proven          PRE    Infinite    0.000 s      
[38]  mst_switch_rd_fpv_top.u_dut.u_mst_switch_rd_props.GEN_AST_ARREADY_ONLY_GRANTED[1].ast_arready_only_to_granted_i:precondition1                   covered         Hp            1    0.116 s      
[39]  mst_switch_rd_fpv_top.u_dut.u_mst_switch_rd_props.GEN_AST_ARREADY_ONLY_GRANTED[2].ast_arready_only_to_granted_i                                 proven          PRE    Infinite    0.000 s      
[40]  mst_switch_rd_fpv_top.u_dut.u_mst_switch_rd_props.GEN_AST_ARREADY_ONLY_GRANTED[2].ast_arready_only_to_granted_i:precondition1                   covered         Hp            1    0.125 s      
[41]  mst_switch_rd_fpv_top.u_dut.u_mst_switch_rd_props.GEN_AST_ARREADY_ONLY_GRANTED[3].ast_arready_only_to_granted_i                                 proven          PRE    Infinite    0.000 s      
[42]  mst_switch_rd_fpv_top.u_dut.u_mst_switch_rd_props.GEN_AST_ARREADY_ONLY_GRANTED[3].ast_arready_only_to_granted_i:precondition1                   covered         Hp            1    0.098 s      
[43]  mst_switch_rd_fpv_top.u_dut.u_mst_switch_rd_props.ast_no_arvalid_out_without_master_req                                                         proven          Hp     Infinite    0.071 s      
[44]  mst_switch_rd_fpv_top.u_dut.u_mst_switch_rd_props.ast_no_arvalid_out_without_master_req:precondition1                                           covered         Hp            1    0.134 s      
[45]  mst_switch_rd_fpv_top.u_dut.u_mst_switch_rd_props.ast_arvalid_stable_until_arready                                                              proven          Hp     Infinite    0.179 s      
[46]  mst_switch_rd_fpv_top.u_dut.u_mst_switch_rd_props.ast_arvalid_stable_until_arready:precondition1                                                covered         Hp            2    0.181 s      
[47]  mst_switch_rd_fpv_top.u_dut.u_mst_switch_rd_props.ast_en_r_set_when_no_grant                                                                    proven          PRE    Infinite    0.000 s      
[48]  mst_switch_rd_fpv_top.u_dut.u_mst_switch_rd_props.ast_en_r_set_when_no_grant:precondition1                                                      covered         N             1    0.043 s      
[49]  mst_switch_rd_fpv_top.u_dut.u_mst_switch_rd_props.ast_en_r_clear_when_grant                                                                     proven          PRE    Infinite    0.000 s      
[50]  mst_switch_rd_fpv_top.u_dut.u_mst_switch_rd_props.ast_en_r_clear_when_grant:precondition1                                                       covered         Hp            1    0.098 s      
[51]  mst_switch_rd_fpv_top.u_dut.u_mst_switch_rd_props.ast_arch_en_c_correct                                                                         proven          PRE    Infinite    0.000 s      
[52]  mst_switch_rd_fpv_top.u_dut.u_mst_switch_rd_props.ast_arch_en_correct                                                                           proven          PRE    Infinite    0.000 s      
[53]  mst_switch_rd_fpv_top.u_dut.u_mst_switch_rd_props.ast_rvalid_onehot_or_zero                                                                     proven          Hp     Infinite    0.071 s      
[54]  mst_switch_rd_fpv_top.u_dut.u_mst_switch_rd_props.GEN_AST_RVALID_REQUIRES_ORVALID[0].ast_rvalid_only_when_o_rvalid_i                            proven          PRE    Infinite    0.000 s      
[55]  mst_switch_rd_fpv_top.u_dut.u_mst_switch_rd_props.GEN_AST_RVALID_REQUIRES_ORVALID[0].ast_rvalid_only_when_o_rvalid_i:precondition1              covered         Hp            1    0.142 s      
[56]  mst_switch_rd_fpv_top.u_dut.u_mst_switch_rd_props.GEN_AST_RVALID_REQUIRES_ORVALID[1].ast_rvalid_only_when_o_rvalid_i                            proven          PRE    Infinite    0.000 s      
[57]  mst_switch_rd_fpv_top.u_dut.u_mst_switch_rd_props.GEN_AST_RVALID_REQUIRES_ORVALID[1].ast_rvalid_only_when_o_rvalid_i:precondition1              covered         Hp            1    0.153 s      
[58]  mst_switch_rd_fpv_top.u_dut.u_mst_switch_rd_props.GEN_AST_RVALID_REQUIRES_ORVALID[2].ast_rvalid_only_when_o_rvalid_i                            proven          PRE    Infinite    0.000 s      
[59]  mst_switch_rd_fpv_top.u_dut.u_mst_switch_rd_props.GEN_AST_RVALID_REQUIRES_ORVALID[2].ast_rvalid_only_when_o_rvalid_i:precondition1              covered         Hp            1    0.162 s      
[60]  mst_switch_rd_fpv_top.u_dut.u_mst_switch_rd_props.GEN_AST_RVALID_REQUIRES_ORVALID[3].ast_rvalid_only_when_o_rvalid_i                            proven          PRE    Infinite    0.000 s      
[61]  mst_switch_rd_fpv_top.u_dut.u_mst_switch_rd_props.GEN_AST_RVALID_REQUIRES_ORVALID[3].ast_rvalid_only_when_o_rvalid_i:precondition1              covered         Hp            1    0.087 s      
[62]  mst_switch_rd_fpv_top.u_dut.u_mst_switch_rd_props.GEN_AST_RVALID_CORRECT_MASTER[0].ast_rvalid_correct_master_by_mask_i                          proven          PRE    Infinite    0.000 s      
[63]  mst_switch_rd_fpv_top.u_dut.u_mst_switch_rd_props.GEN_AST_RVALID_CORRECT_MASTER[0].ast_rvalid_correct_master_by_mask_i:precondition1            covered         Hp            1    0.142 s      
[64]  mst_switch_rd_fpv_top.u_dut.u_mst_switch_rd_props.GEN_AST_RVALID_CORRECT_MASTER[1].ast_rvalid_correct_master_by_mask_i                          proven          PRE    Infinite    0.000 s      
[65]  mst_switch_rd_fpv_top.u_dut.u_mst_switch_rd_props.GEN_AST_RVALID_CORRECT_MASTER[1].ast_rvalid_correct_master_by_mask_i:precondition1            covered         Hp            1    0.153 s      
[66]  mst_switch_rd_fpv_top.u_dut.u_mst_switch_rd_props.GEN_AST_RVALID_CORRECT_MASTER[2].ast_rvalid_correct_master_by_mask_i                          proven          PRE    Infinite    0.000 s      
[67]  mst_switch_rd_fpv_top.u_dut.u_mst_switch_rd_props.GEN_AST_RVALID_CORRECT_MASTER[2].ast_rvalid_correct_master_by_mask_i:precondition1            covered         Hp            1    0.162 s      
[68]  mst_switch_rd_fpv_top.u_dut.u_mst_switch_rd_props.GEN_AST_RVALID_CORRECT_MASTER[3].ast_rvalid_correct_master_by_mask_i                          proven          PRE    Infinite    0.000 s      
[69]  mst_switch_rd_fpv_top.u_dut.u_mst_switch_rd_props.GEN_AST_RVALID_CORRECT_MASTER[3].ast_rvalid_correct_master_by_mask_i:precondition1            covered         Hp            1    0.087 s      
[70]  mst_switch_rd_fpv_top.u_dut.u_mst_switch_rd_props.GEN_AST_RVALID_NOT_WRONG[0].ast_rvalid_not_driven_wrong_master_i                              proven          PRE    Infinite    0.000 s      
[71]  mst_switch_rd_fpv_top.u_dut.u_mst_switch_rd_props.GEN_AST_RVALID_NOT_WRONG[0].ast_rvalid_not_driven_wrong_master_i:precondition1                covered         Hp            1    0.087 s      
[72]  mst_switch_rd_fpv_top.u_dut.u_mst_switch_rd_props.GEN_AST_RVALID_NOT_WRONG[1].ast_rvalid_not_driven_wrong_master_i                              proven          PRE    Infinite    0.000 s      
[73]  mst_switch_rd_fpv_top.u_dut.u_mst_switch_rd_props.GEN_AST_RVALID_NOT_WRONG[1].ast_rvalid_not_driven_wrong_master_i:precondition1                covered         Hp            1    0.087 s      
[74]  mst_switch_rd_fpv_top.u_dut.u_mst_switch_rd_props.GEN_AST_RVALID_NOT_WRONG[2].ast_rvalid_not_driven_wrong_master_i                              proven          PRE    Infinite    0.000 s      
[75]  mst_switch_rd_fpv_top.u_dut.u_mst_switch_rd_props.GEN_AST_RVALID_NOT_WRONG[2].ast_rvalid_not_driven_wrong_master_i:precondition1                covered         Hp            1    0.087 s      
[76]  mst_switch_rd_fpv_top.u_dut.u_mst_switch_rd_props.GEN_AST_RVALID_NOT_WRONG[3].ast_rvalid_not_driven_wrong_master_i                              proven          PRE    Infinite    0.000 s      
[77]  mst_switch_rd_fpv_top.u_dut.u_mst_switch_rd_props.GEN_AST_RVALID_NOT_WRONG[3].ast_rvalid_not_driven_wrong_master_i:precondition1                covered         Hp            1    0.142 s      
[78]  mst_switch_rd_fpv_top.u_dut.u_mst_switch_rd_props.GEN_AST_RREADY_FOLLOWS[0].ast_rready_follows_targeted_master_i                                proven          Hp     Infinite    0.072 s      
[79]  mst_switch_rd_fpv_top.u_dut.u_mst_switch_rd_props.GEN_AST_RREADY_FOLLOWS[0].ast_rready_follows_targeted_master_i:precondition1                  covered         Hp            1    0.142 s      
[80]  mst_switch_rd_fpv_top.u_dut.u_mst_switch_rd_props.GEN_AST_RREADY_FOLLOWS[1].ast_rready_follows_targeted_master_i                                proven          Hp     Infinite    0.072 s      
[81]  mst_switch_rd_fpv_top.u_dut.u_mst_switch_rd_props.GEN_AST_RREADY_FOLLOWS[1].ast_rready_follows_targeted_master_i:precondition1                  covered         Hp            1    0.153 s      
[82]  mst_switch_rd_fpv_top.u_dut.u_mst_switch_rd_props.GEN_AST_RREADY_FOLLOWS[2].ast_rready_follows_targeted_master_i                                proven          Hp     Infinite    0.073 s      
[83]  mst_switch_rd_fpv_top.u_dut.u_mst_switch_rd_props.GEN_AST_RREADY_FOLLOWS[2].ast_rready_follows_targeted_master_i:precondition1                  covered         Hp            1    0.162 s      
[84]  mst_switch_rd_fpv_top.u_dut.u_mst_switch_rd_props.GEN_AST_RREADY_FOLLOWS[3].ast_rready_follows_targeted_master_i                                proven          Hp     Infinite    0.073 s      
[85]  mst_switch_rd_fpv_top.u_dut.u_mst_switch_rd_props.GEN_AST_RREADY_FOLLOWS[3].ast_rready_follows_targeted_master_i:precondition1                  covered         Hp            1    0.087 s      
[86]  mst_switch_rd_fpv_top.u_dut.u_mst_switch_rd_props.ast_rch_passthrough                                                                           proven          PRE    Infinite    0.000 s      
[87]  mst_switch_rd_fpv_top.u_dut.u_mst_switch_rd_props.ast_no_rvalid_when_no_id_match                                                                proven          Hp     Infinite    0.074 s      
[88]  mst_switch_rd_fpv_top.u_dut.u_mst_switch_rd_props.ast_no_rvalid_when_no_id_match:precondition1                                                  covered         Hp            1    0.171 s      
[89]  mst_switch_rd_fpv_top.u_dut.u_mst_switch_rd_props.GEN_AST_RLAST_PASSTHROUGH[0].ast_rlast_passthrough_targeted_i                                 proven          PRE    Infinite    0.000 s      
[90]  mst_switch_rd_fpv_top.u_dut.u_mst_switch_rd_props.GEN_AST_RLAST_PASSTHROUGH[0].ast_rlast_passthrough_targeted_i:precondition1                   covered         Hp            1    0.142 s      
[91]  mst_switch_rd_fpv_top.u_dut.u_mst_switch_rd_props.GEN_AST_RLAST_PASSTHROUGH[1].ast_rlast_passthrough_targeted_i                                 proven          PRE    Infinite    0.000 s      
[92]  mst_switch_rd_fpv_top.u_dut.u_mst_switch_rd_props.GEN_AST_RLAST_PASSTHROUGH[1].ast_rlast_passthrough_targeted_i:precondition1                   covered         Hp            1    0.153 s      
[93]  mst_switch_rd_fpv_top.u_dut.u_mst_switch_rd_props.GEN_AST_RLAST_PASSTHROUGH[2].ast_rlast_passthrough_targeted_i                                 proven          PRE    Infinite    0.000 s      
[94]  mst_switch_rd_fpv_top.u_dut.u_mst_switch_rd_props.GEN_AST_RLAST_PASSTHROUGH[2].ast_rlast_passthrough_targeted_i:precondition1                   covered         Hp            1    0.162 s      
[95]  mst_switch_rd_fpv_top.u_dut.u_mst_switch_rd_props.GEN_AST_RLAST_PASSTHROUGH[3].ast_rlast_passthrough_targeted_i                                 proven          PRE    Infinite    0.000 s      
[96]  mst_switch_rd_fpv_top.u_dut.u_mst_switch_rd_props.GEN_AST_RLAST_PASSTHROUGH[3].ast_rlast_passthrough_targeted_i:precondition1                   covered         Hp            1    0.087 s      
[97]  mst_switch_rd_fpv_top.u_dut.u_mst_switch_rd_props.GEN_AST_RLAST_ZERO_NOT_TARGETED[0].ast_rlast_zero_when_not_targeted_i                         proven          Hp     Infinite    0.074 s      
[98]  mst_switch_rd_fpv_top.u_dut.u_mst_switch_rd_props.GEN_AST_RLAST_ZERO_NOT_TARGETED[0].ast_rlast_zero_when_not_targeted_i:precondition1           covered         N             1    0.043 s      
[99]  mst_switch_rd_fpv_top.u_dut.u_mst_switch_rd_props.GEN_AST_RLAST_ZERO_NOT_TARGETED[1].ast_rlast_zero_when_not_targeted_i                         proven          Hp     Infinite    0.074 s      
[100] mst_switch_rd_fpv_top.u_dut.u_mst_switch_rd_props.GEN_AST_RLAST_ZERO_NOT_TARGETED[1].ast_rlast_zero_when_not_targeted_i:precondition1           covered         Hp            1    0.077 s      
[101] mst_switch_rd_fpv_top.u_dut.u_mst_switch_rd_props.GEN_AST_RLAST_ZERO_NOT_TARGETED[2].ast_rlast_zero_when_not_targeted_i                         proven          Hp     Infinite    0.075 s      
[102] mst_switch_rd_fpv_top.u_dut.u_mst_switch_rd_props.GEN_AST_RLAST_ZERO_NOT_TARGETED[2].ast_rlast_zero_when_not_targeted_i:precondition1           covered         N             1    0.043 s      
[103] mst_switch_rd_fpv_top.u_dut.u_mst_switch_rd_props.GEN_AST_RLAST_ZERO_NOT_TARGETED[3].ast_rlast_zero_when_not_targeted_i                         proven          Hp     Infinite    0.075 s      
[104] mst_switch_rd_fpv_top.u_dut.u_mst_switch_rd_props.GEN_AST_RLAST_ZERO_NOT_TARGETED[3].ast_rlast_zero_when_not_targeted_i:precondition1           covered         Hp            1    0.077 s      
[105] mst_switch_rd_fpv_top.u_dut.u_mst_switch_rd_props.GEN_AST_RLAST_REQUIRES_RVALID[0].ast_rlast_requires_rvalid_i                                  proven          PRE    Infinite    0.000 s      
[106] mst_switch_rd_fpv_top.u_dut.u_mst_switch_rd_props.GEN_AST_RLAST_REQUIRES_RVALID[0].ast_rlast_requires_rvalid_i:precondition1                    covered         Hp            1    0.142 s      
[107] mst_switch_rd_fpv_top.u_dut.u_mst_switch_rd_props.GEN_AST_RLAST_REQUIRES_RVALID[1].ast_rlast_requires_rvalid_i                                  proven          PRE    Infinite    0.000 s      
[108] mst_switch_rd_fpv_top.u_dut.u_mst_switch_rd_props.GEN_AST_RLAST_REQUIRES_RVALID[1].ast_rlast_requires_rvalid_i:precondition1                    covered         Hp            1    0.153 s      
[109] mst_switch_rd_fpv_top.u_dut.u_mst_switch_rd_props.GEN_AST_RLAST_REQUIRES_RVALID[2].ast_rlast_requires_rvalid_i                                  proven          PRE    Infinite    0.000 s      
[110] mst_switch_rd_fpv_top.u_dut.u_mst_switch_rd_props.GEN_AST_RLAST_REQUIRES_RVALID[2].ast_rlast_requires_rvalid_i:precondition1                    covered         Hp            1    0.162 s      
[111] mst_switch_rd_fpv_top.u_dut.u_mst_switch_rd_props.GEN_AST_RLAST_REQUIRES_RVALID[3].ast_rlast_requires_rvalid_i                                  proven          PRE    Infinite    0.000 s      
[112] mst_switch_rd_fpv_top.u_dut.u_mst_switch_rd_props.GEN_AST_RLAST_REQUIRES_RVALID[3].ast_rlast_requires_rvalid_i:precondition1                    covered         Hp            1    0.087 s      
[113] mst_switch_rd_fpv_top.u_dut.u_mst_switch_rd_props.ast_all_masters_idle_no_output                                                                proven          Hp     Infinite    0.071 s      
[114] mst_switch_rd_fpv_top.u_dut.u_mst_switch_rd_props.ast_all_masters_idle_no_output:precondition1                                                  covered         Hp            1    0.134 s      
[115] mst_switch_rd_fpv_top.u_dut.u_mst_switch_rd_props.ast_srst_clears_en_r                                                                          proven          PRE    Infinite    0.000 s      
[116] mst_switch_rd_fpv_top.u_dut.u_mst_switch_rd_props.ast_srst_clears_en_r:precondition1                                                            covered         Hp            1    0.077 s      
[117] mst_switch_rd_fpv_top.u_dut.u_mst_switch_rd_props.GEN_COV_AR_HS[0].cov_ar_handshake_per_master_i                                                covered         Hp            1    0.107 s      
[118] mst_switch_rd_fpv_top.u_dut.u_mst_switch_rd_props.GEN_COV_AR_HS[1].cov_ar_handshake_per_master_i                                                covered         Hp            1    0.116 s      
[119] mst_switch_rd_fpv_top.u_dut.u_mst_switch_rd_props.GEN_COV_AR_HS[2].cov_ar_handshake_per_master_i                                                covered         Hp            1    0.125 s      
[120] mst_switch_rd_fpv_top.u_dut.u_mst_switch_rd_props.GEN_COV_AR_HS[3].cov_ar_handshake_per_master_i                                                covered         Hp            1    0.098 s      
[121] mst_switch_rd_fpv_top.u_dut.u_mst_switch_rd_props.cov_back_to_back_ar                                                                           covered         Hp            2    0.190 s      
[122] mst_switch_rd_fpv_top.u_dut.u_mst_switch_rd_props.cov_concurrent_ar_requests                                                                    covered         Hp            1    0.077 s      
[123] mst_switch_rd_fpv_top.u_dut.u_mst_switch_rd_props.cov_r_handshake                                                                               covered         Hp            1    0.162 s      
[124] mst_switch_rd_fpv_top.u_dut.u_mst_switch_rd_props.cov_rlast_fires                                                                               covered         Hp            1    0.162 s      
[125] mst_switch_rd_fpv_top.u_dut.u_mst_switch_rd_props.GEN_COV_R_ROUTED[0].cov_r_response_routed_per_master_i                                        covered         Hp            1    0.142 s      
[126] mst_switch_rd_fpv_top.u_dut.u_mst_switch_rd_props.GEN_COV_R_ROUTED[1].cov_r_response_routed_per_master_i                                        covered         Hp            1    0.153 s      
[127] mst_switch_rd_fpv_top.u_dut.u_mst_switch_rd_props.GEN_COV_R_ROUTED[2].cov_r_response_routed_per_master_i                                        covered         Hp            1    0.162 s      
[128] mst_switch_rd_fpv_top.u_dut.u_mst_switch_rd_props.GEN_COV_R_ROUTED[3].cov_r_response_routed_per_master_i                                        covered         Hp            1    0.087 s      
[129] mst_switch_rd_fpv_top.u_dut.u_mst_switch_rd_props.cov_ar_then_r_complete                                                                        covered         Hp            2    0.198 s      

==============================================================
ASSUMPTIONS
==============================================================

-------------------------------------------------------------------------------
       Name    |  Expression  |  Location     |  Status      |  Dependencies                  
-------------------------------------------------------------------------------
[1]   <embedded>::mst_switch_rd_fpv_top.u_dut.u_mst_switch_rd_props.GEN_ASM_ARVALID_STABLE[0].asm_arvalid_stable_i  u_dut.u_mst_switch_rd_props.GEN_ASM_ARVALID_STABLE[0].asm_arvalid_stable_i  N/A approved
[2]   <embedded>::mst_switch_rd_fpv_top.u_dut.u_mst_switch_rd_props.GEN_ASM_ARVALID_STABLE[1].asm_arvalid_stable_i  u_dut.u_mst_switch_rd_props.GEN_ASM_ARVALID_STABLE[1].asm_arvalid_stable_i  N/A approved
[3]   <embedded>::mst_switch_rd_fpv_top.u_dut.u_mst_switch_rd_props.GEN_ASM_ARVALID_STABLE[2].asm_arvalid_stable_i  u_dut.u_mst_switch_rd_props.GEN_ASM_ARVALID_STABLE[2].asm_arvalid_stable_i  N/A approved
[4]   <embedded>::mst_switch_rd_fpv_top.u_dut.u_mst_switch_rd_props.GEN_ASM_ARVALID_STABLE[3].asm_arvalid_stable_i  u_dut.u_mst_switch_rd_props.GEN_ASM_ARVALID_STABLE[3].asm_arvalid_stable_i  N/A approved
[5]   <embedded>::mst_switch_rd_fpv_top.u_dut.u_mst_switch_rd_props.GEN_ASM_ARCH_STABLE[0].asm_arch_stable_i  u_dut.u_mst_switch_rd_props.GEN_ASM_ARCH_STABLE[0].asm_arch_stable_i  N/A approved
[6]   <embedded>::mst_switch_rd_fpv_top.u_dut.u_mst_switch_rd_props.GEN_ASM_ARCH_STABLE[1].asm_arch_stable_i  u_dut.u_mst_switch_rd_props.GEN_ASM_ARCH_STABLE[1].asm_arch_stable_i  N/A approved
[7]   <embedded>::mst_switch_rd_fpv_top.u_dut.u_mst_switch_rd_props.GEN_ASM_ARCH_STABLE[2].asm_arch_stable_i  u_dut.u_mst_switch_rd_props.GEN_ASM_ARCH_STABLE[2].asm_arch_stable_i  N/A approved
[8]   <embedded>::mst_switch_rd_fpv_top.u_dut.u_mst_switch_rd_props.GEN_ASM_ARCH_STABLE[3].asm_arch_stable_i  u_dut.u_mst_switch_rd_props.GEN_ASM_ARCH_STABLE[3].asm_arch_stable_i  N/A approved
[9]   <embedded>::mst_switch_rd_fpv_top.u_dut.u_mst_switch_rd_props.asm_rready_not_x  u_dut.u_mst_switch_rd_props.asm_rready_not_x  N/A approved
[10]  <embedded>::mst_switch_rd_fpv_top.u_dut.u_mst_switch_rd_props.asm_arvalid_not_x  u_dut.u_mst_switch_rd_props.asm_arvalid_not_x  N/A approved
[11]  <embedded>::mst_switch_rd_fpv_top.u_dut.u_mst_switch_rd_props.asm_arready_not_x  u_dut.u_mst_switch_rd_props.asm_arready_not_x  N/A approved
[12]  <embedded>::mst_switch_rd_fpv_top.u_dut.u_mst_switch_rd_props.asm_rvalid_stable  u_dut.u_mst_switch_rd_props.asm_rvalid_stable  N/A approved
[13]  <embedded>::mst_switch_rd_fpv_top.u_dut.u_mst_switch_rd_props.asm_rch_stable  u_dut.u_mst_switch_rd_props.asm_rch_stable  N/A approved
[14]  <embedded>::mst_switch_rd_fpv_top.u_dut.u_mst_switch_rd_props.asm_rlast_stable  u_dut.u_mst_switch_rd_props.asm_rlast_stable  N/A approved
[15]  <embedded>::mst_switch_rd_fpv_top.u_dut.u_mst_switch_rd_props.asm_rch_id_in_range  u_dut.u_mst_switch_rd_props.asm_rch_id_in_range  N/A approved
[16]  <embedded>::mst_switch_rd_fpv_top.u_dut.u_mst_switch_rd_props.asm_reset_at_start  u_dut.u_mst_switch_rd_props.asm_reset_at_start  N/A approved
[17]  <embedded>::mst_switch_rd_fpv_top.u_dut.u_mst_switch_rd_props.asm_srst_not_with_areset  u_dut.u_mst_switch_rd_props.asm_srst_not_with_areset  N/A approved
[18]  <embedded>::mst_switch_rd_fpv_top.u_dut.u_mst_switch_rd_props.asm_srst_rare  u_dut.u_mst_switch_rd_props.asm_srst_rare  N/A approved
